! SIEMENS Discrete & RF Semiconductors
! BFP405
! Si NPN RF SIEGET Grounded Emitter Transistor in SOT343
! VCE = 3.5 V     IC = 1.2 mA     
! Common Emitter S-Parameters:                     February  1998
# GHz  S  MA  R  50
!  f         S11            S21            S12            S22
! GHz     MAG   ANG      MAG   ANG      MAG   ANG      MAG   ANG
 0.010  0.9576   -0.2   4.211  179.7  0.0006   84.6  0.9947   -0.2
 0.020  0.9590   -0.5   4.153  179.6  0.0006   63.2  0.9880   -0.2
 0.050  0.9596   -1.4   4.182  178.2  0.0017   76.6  0.9973   -0.7
 0.100  0.9576   -2.6   4.178  177.5  0.0032   88.8  0.9964   -1.5
 0.150  0.9578   -4.4   4.197  176.1  0.0047   84.4  0.9955   -2.2
 0.200  0.9606   -6.0   4.151  174.4  0.0062   82.7  0.9966   -2.9
 0.250  0.9546   -7.5   4.168  173.6  0.0081   87.5  0.9943   -3.7
 0.300  0.9591   -8.9   4.196  172.1  0.0095   85.5  0.9938   -4.3
 0.400  0.9517  -11.9   4.190  169.1  0.0127   83.5  0.9934   -5.9
 0.500  0.9475  -14.3   4.132  165.8  0.0159   82.1  0.9895   -7.4
 0.600  0.9432  -17.5   4.163  163.4  0.0187   80.2  0.9867   -8.7
 0.700  0.9376  -20.6   4.115  160.5  0.0220   78.9  0.9833  -10.2
 0.800  0.9311  -23.6   4.123  157.9  0.0254   76.7  0.9800  -11.7
 0.900  0.9220  -26.3   4.095  155.0  0.0282   76.0  0.9717  -13.1
 1.000  0.9162  -29.3   4.071  152.9  0.0312   74.4  0.9684  -14.5
 1.100  0.9066  -32.4   4.050  149.9  0.0340   72.8  0.9646  -16.0
 1.200  0.8975  -35.4   4.000  147.5  0.0373   70.6  0.9576  -17.5
 1.300  0.8871  -38.3   3.979  144.6  0.0405   69.3  0.9485  -18.9
 1.400  0.8774  -41.5   3.941  142.3  0.0430   67.5  0.9416  -20.2
 1.500  0.8644  -44.2   3.972  139.1  0.0461   65.6  0.9386  -21.6
 1.600  0.8490  -47.4   3.953  136.2  0.0488   64.5  0.9296  -23.1
 1.700  0.8445  -50.9   3.931  133.8  0.0517   62.7  0.9158  -24.3
 1.800  0.8247  -53.9   3.902  130.4  0.0539   60.7  0.9092  -25.3
 1.900  0.8120  -57.2   3.882  128.0  0.0568   59.2  0.9046  -26.7
 2.000  0.7989  -60.2   3.842  124.9  0.0589   57.7  0.8964  -28.2
 2.200  0.7691  -65.9   3.739  120.2  0.0642   54.6  0.8768  -30.4
 2.400  0.7402  -72.2   3.665  114.9  0.0683   52.2  0.8593  -33.1
 2.600  0.7114  -78.7   3.579  110.1  0.0725   49.5  0.8377  -34.7
 2.800  0.6779  -84.3   3.480  104.8  0.0761   46.5  0.8247  -37.6
 3.000  0.6522  -91.0   3.390  100.0  0.0798   43.8  0.8024  -39.2
 3.500  0.5660 -107.4   3.184   87.6  0.0879   37.1  0.7678  -44.9
 4.000  0.5107 -125.2   2.979   76.6  0.0945   31.6  0.7203  -51.2
 4.500  0.4656 -145.6   2.778   65.8  0.1004   25.9  0.6683  -56.6
 5.000  0.4425 -164.9   2.585   55.0  0.1030   20.3  0.6368  -60.3
 5.500  0.4213  176.1   2.367   44.9  0.1020   15.0  0.6113  -65.9
 6.000  0.4191  164.8   2.206   37.4  0.1041   15.0  0.5831  -71.2
! 
!  f       Fmin   Gammaopt  rn/50
! GHz       dB    MAG  ANG    -
 0.900      0.83  0.68   16   0.51
 1.800      1.14  0.53   30   0.47
 2.400      1.33  0.45   42   0.43
 3.000      1.52  0.45   57   0.40
 4.000      1.78  0.33   84   0.29
!
! SIEMENS AG  Semiconductor Group, Munich
